! /Users/rfdate/Desktop/Miramar/trace_loss/Path_Loss_Miramar/PATH16_1.S2P
! /Users/rfdate/Desktop/Miramar/trace_loss/Measured_Trace_Loss/LB/LB_V3.s2p
!Created with skrf (http://scikit-rf.org).
# Hz S RI R 50.0 
!freq ReS11 ImS11 ReS21 ImS21 ReS12 ImS12 ReS22 ImS22
20000000000.0 -0.10622534300395373 0.020015973578063576 0.03510295562687702 0.13619542536274035 0.03540500938116856 0.13608835161376023 0.04556475166536655 0.0183119040044427
20010006671.114075 -0.10620065602029488 0.01998399866504379 0.03721760044866112 0.13561640999227706 0.037517914577078225 0.1355046532293913 0.04870569806103751 0.01717352939183722
20020013342.228153 -0.1061758741352718 0.019952075354728944 0.03932271537634817 0.135004598318415 0.039621217360047443 0.1348881867697208 0.051817690517525224 0.015885961115885083
20030020013.342228 0.06814604820137893 0.03576481686090369 0.022152751466268657 0.1369747368825874 0.025543948262184153 0.1373537390640638 0.12284132374709693 -5.702373530664523e-06
20040026684.456303 0.0681776452813957 0.03574083457709409 0.02426997229940588 0.1365822704127867 0.027665841596220687 0.13690852455059405 0.12537270384400837 -0.0036897936806936683
20050033355.57038 0.0682093148074261 0.035716935802270235 0.026380374182783866 0.13615708342116453 0.029780095815047494 0.13643053515732315 0.12779352474359604 -0.007502804716993796
20060040026.684456 0.06823693900425316 0.03568851465808927 0.028476654146261018 0.13569363688981398 0.03187922853744856 0.1359143683299035 0.12990538559206707 -0.011201490628447748
20070046697.79853 0.06826458957989968 0.03566012500136491 0.0305649200567886 0.13519792529827543 0.03396952994585895 0.13536591340243975 0.1319109417871658 -0.015004042818226579
20080053368.91261 -0.023904000251694018 -0.0003374368034529066 0.022819437373096985 0.14129506862412028 0.028049224372555925 0.14146391841517156 0.07525094606858625 -0.013267100698136162
20090060040.026684 -0.023870404751322495 -0.00036314914798049255 0.025005991006199452 0.14089913334024634 0.030236855035378356 0.14098675251048762 0.07726268878641396 -0.01545901311950362
20100066711.140762 -0.023836781091822707 -0.0003888328572035837 0.02718574728213871 0.14046936821068645 0.03241642686557254 0.14047576419425817 0.07921306578269874 -0.01775414753470362
20110073382.254837 -0.023807182169843618 -0.00041918469652288924 0.02935317594041287 0.13999999798301402 0.03458216370321686 0.13992533629209924 0.08092836603599135 -0.019932200678211505
20120080053.36891 -0.0237776042792069 -0.00044956147574934033 0.031512590253029486 0.1394971789741477 0.03673862988672643 0.1393415133774199 0.08258687284346522 -0.022196788422301154
20130086724.48299 -0.022825303814063464 0.0821713119581122 0.022896386021371378 0.138192566686273 0.02655713236820865 0.13838093654026432 0.11868912426471621 -0.018860928237734283
20140093395.597065 -0.022792791447253376 0.08214694935960828 0.025026973889534104 0.13778076433591857 0.0286891214379492 0.13791236535899884 0.12036663206602466 -0.022368516648768468
20150100066.71114 -0.02276029944228298 0.08212256440788739 0.027150295867066306 0.13733611736729667 0.030812964345351062 0.13741095141633702 0.12194488616546961 -0.02596143526976693
20160106737.82522 -0.02273136860619282 0.08209383375905503 0.029259460324170164 0.13685477113814637 0.03292163234360555 0.1368729946581172 0.12326975011452852 -0.02942354172012078
20170113408.939293 -0.02270249901355486 0.0820650355726034 0.03136022130361913 0.13634103174805834 0.03502102176422449 0.13630267820297493 0.12450057726985175 -0.03295518932310901
20180120080.053368 0.022738315684147806 -0.04766008805359185 0.019554487316794395 0.14015413470045876 0.023484961672229243 0.1385173024503264 0.09200455237572894 -0.03210452859652891
20190126751.167446 0.02277263848306338 -0.04768290775946735 0.021715896726725244 0.1397971505405222 0.025619515269927822 0.13810012604041252 0.09321395965288717 -0.034733019114660243
20200133422.28152 0.022806917239990943 -0.04770581106529292 0.02387094647072882 0.1394068117570171 0.027746786802416188 0.13765003420469227 0.09435412797226592 -0.03742986026394256
20210140093.395596 0.022838053228504792 -0.04773312963004763 0.026013869783594767 0.13897963017724782 0.029860951904967004 0.1371637331946113 0.09529884441873315 -0.03998743734020206
20220146764.509674 0.022869109642560316 -0.04776057294519408 0.028149298134345652 0.13851947388584723 0.03196671935257649 0.1366449268213956 0.09617964894738731 -0.0426022095236265
20230153435.62375 -0.023940690507242155 0.13709843885308876 0.01694271218528688 0.13520079174966412 0.02045517852105576 0.13516875804963505 0.1298961485014682 -0.05750015424784154
20240160106.737823 -0.023907342453216077 0.13707825026252174 0.019016668789986195 0.1348749849440154 0.02252695600176969 0.13478887473944626 0.1302286087634279 -0.06122517400099524
20250166777.851902 -0.023874049223312307 0.13705793871194072 0.02108458641650045 0.13451735831443296 0.0245918617400513 0.13437723167693436 0.13046075053142372 -0.06498876234001465
20260173448.965977 -0.02384339228711266 0.1370335187491478 0.023140142456667356 0.13412650258852468 0.026643518249222516 0.13393257730551167 0.13049340369120702 -0.06858625381775971
20270180120.080055 -0.023812816880193023 0.13700894513183903 0.025188635246115525 0.13370423023396566 0.028687286023950907 0.13345659380409794 0.1304323870332092 -0.07221139848808526
20280186791.19413 0.007512334233577429 -0.06116813368996515 0.010581700833976403 0.1399965110758754 0.01452062002185371 0.13817533791228834 0.09327343500857983 -0.0696050890164855
20290193462.308205 0.0075497509974846375 -0.06118562051782363 0.0127320374289112 0.13977380917269921 0.016641241447159068 0.13789278551487127 0.09325713794460115 -0.07214833300739001
20300200133.422283 0.007587127214837005 -0.06120328873305317 0.014878036832275475 0.13951804358646133 0.018756615294657226 0.13757765276861322 0.09317850372720118 -0.0747205847017043
20310206804.536358 0.007622309776368427 -0.06122540198711877 0.017014559579300825 0.1392278895428296 0.02086161935264437 0.13722877804000913 0.09296509467242986 -0.07713174510271653
20320213475.650433 0.0076574274529728585 -0.06124772323626982 0.019145687161793868 0.13890497704242324 0.022960338144796286 0.13684765551845499 0.09269535141145496 -0.0795651015746073
20330220146.76451 -0.014361560495233313 0.12353839404150185 0.006971844764957005 0.13654550965707385 0.012522560243393615 0.1359290460692291 0.13151172969530167 -0.0844488638420233
20340226817.878586 -0.014324448754565233 0.12352334709090206 0.009062057003220755 0.1363671948788229 0.014600416630670522 0.13566593617790357 0.13100469962168407 -0.08812097031901256
20350233488.99266 -0.014287367295327669 0.12350809740611357 0.011148386495089306 0.13615686399072882 0.01667309425273197 0.13537104638475456 0.13040168094707494 -0.09180635107449285
20360240160.10674 -0.014252107684919805 0.12348859813276869 0.01322486111384108 0.13591456705625152 0.018734637553064957 0.13504467014637103 0.1296529664119418 -0.09532502674519996
20370246831.220814 -0.01421689934564997 0.12346887978664313 0.015296468684763129 0.13564058808187796 0.020790033803118377 0.13468688739852372 0.1288144867936178 -0.09884943539780669
20380253502.33489 0.0062753527479234164 0.001611712944400129 0.004252305548326232 0.13799518873764302 0.00667659940215435 0.14044584858941545 0.08685113084337318 -0.1167207443227428
20390260173.448967 0.006315700061377572 0.001599079221422145 0.00635948629394201 0.1378702597328498 0.00882018140663354 0.140282803802471 0.0854423255175494 -0.11897866816654523
20400266844.56304 0.0063560506927276775 0.0015862095052490259 0.008463840448850986 0.13771315412578805 0.01096033799250542 0.14008704219282894 0.0839816688167475 -0.12122519157103888
20410273515.677116 0.006394923192531277 0.0015688519331833377 0.010561056022189414 0.13752477374131752 0.013092693667845054 0.13985955539698033 0.08243903202041984 -0.12330118697502024
20420280186.791195 0.006433776536168727 0.0015512452771884327 0.012654491155617599 0.13730445773635322 0.015220656733923574 0.1395996133858787 0.08085086823057172 -0.12536201731339194
20430286857.90527 -0.022042163829480974 0.07569168158645406 0.005064448715074441 0.13737703722743996 0.008578303679023236 0.13932376263602647 0.11785403198083583 -0.10153707144905325
20440293529.019344 -0.02200164201886714 0.07567897703699329 0.007162601836633457 0.1372272321641967 0.010704376070797144 0.13911919704275633 0.11691869533411225 -0.10477537145141451
20450300200.133423 -0.021961116281738493 0.07566602345532905 0.009257287263770604 0.13704535637477477 0.012826125963506683 0.13888216344412865 0.11589997666314987 -0.10801705484522743
20460306871.247498 -0.021922021554270192 0.07564868101159268 0.011343180592865083 0.13683264190859817 0.014938179419773587 0.138614045711031 0.1147784867437277 -0.11111650975276886
20470313542.361576 -0.021882948348108937 0.07563108471745364 0.013424662460269257 0.13658816632295698 0.017044960112231576 0.1383137978669462 0.1135782847489725 -0.11421410775584509
20480320213.47565 0.055293248639865684 0.06529317782097901 0.0019764585616624574 0.13585190656105134 0.0020863276876175257 0.1370508203589441 0.0927873248248789 -0.1632314687350363
20490326884.589725 0.05533422887752601 0.06528431708282695 0.0040352611893584005 0.1357595347514616 0.004163257104848798 0.13695623203402135 0.090056060049511 -0.1656704902439175
20500333555.703804 0.05537524860602472 0.06527521404224358 0.006091671716552082 0.1356360352736694 0.006237752114087371 0.13683024265355223 0.08726641332078316 -0.16806071126642572
20510340226.81788 0.0554153209516971 0.06526177122437832 0.008141746281532752 0.1354844679058839 0.008305836090686266 0.13667594171166564 0.08440989830179053 -0.17027615707177332
20520346897.931953 0.05545540597745015 0.06524808110356645 0.010188595633378861 0.13530199553252242 0.01037064533752559 0.1364904649107807 0.08150169026126976 -0.1724396845338795
20530353569.046032 -0.054099902279582036 0.04088176950440596 0.00010083184057091086 0.13882034675864727 0.004504964711628596 0.13769621670563723 0.09530465040718777 -0.12489888231570383
20540360240.160107 -0.05405687610894539 0.04087339179215536 0.0022162455004227886 0.13875022564622827 0.006601072040637512 0.13755953701953622 0.09378404668887413 -0.12752158290057716
20550366911.27418 -0.05401380866752847 0.040864750444157515 0.004329506908531522 0.13864786409668378 0.008694021466374635 0.13739094552137318 0.09219599321103841 -0.13013341242278964
20560373582.38826 -0.05397158132027845 0.04085163258499676 0.006436250090661513 0.13851548596803587 0.010779552834327516 0.1371927866501612 0.09053105340081166 -0.1326187760187378
20570380253.502335 -0.053929347997955755 0.04083824994244496 0.008539931381142426 0.1383510969820779 0.012861031289019114 0.1369629725569549 0.0888025489564126 -0.1350894076487274
20580386924.61641 0.1041839735897464 0.09135951021378935 -0.0037853502610920853 0.13074541788446065 -0.000757963600342791 0.13175121084599095 0.08838328088452703 -0.19348119644133926
20590393595.730488 0.10422400461952852 0.09135558460843742 -0.0018119977718076053 0.1307417642883678 0.0012291495711068518 0.13170143812110838 0.08483231271820016 -0.19589333583569643
20600400266.844563 0.10426409106526563 0.09135143139467874 0.00016033795632334975 0.1307084175457857 0.0032145452759002524 0.13162178765731852 0.08122037958119666 -0.19823454156526688
20610406937.958637 0.10430385984429597 0.09134320294864222 0.00212810373188276 0.13064950253097724 0.005194741740318975 0.13151649626636586 0.07754203090711448 -0.20040149883206007
20620413609.072716 0.1043436497813305 0.09133474478574785 0.004094101971511481 0.13056105481760252 0.007172468443231537 0.1313815062467803 0.0738095247576478 -0.20249437182899455
20630420280.18679 -0.07512014554259404 0.03470191547403166 -0.007052919639791023 0.13636856616970247 -0.005040883789719747 0.13670911641054606 0.051793458849760776 -0.1462271151984795
20640426951.30087 -0.07507576358007063 0.03470120717784095 -0.004977658509360683 0.13642061413671047 -0.002961260776172054 0.13673044953634297 0.04973952066202082 -0.14767858157636365
20650433622.414944 -0.07503131214539245 0.034700241743168006 -0.002902418050507238 0.1364410615213313 -0.0008821275442043769 0.13672012773145933 0.04764940669930895 -0.1491064976727548
20660440293.52902 -0.07498677976486967 0.03469483862320113 -0.0008299859701365327 0.1364327344220014 0.0011937653279443235 0.13668102336254 0.045510506536557846 -0.15041065535081707
20670446964.643097 -0.07494222201867529 0.03468917473936682 0.0012415422855775776 0.13639290282227348 0.00326828516419253 0.1366103734204993 0.04333911903819181 -0.15168911113779576
20680453635.75717 0.09334839353675486 0.07526507093872963 -0.009721912683276455 0.13071340987164745 -0.009268815098630801 0.1333416147113516 0.06722138838182626 -0.19297918621453594
20690460306.871246 0.09339063735955037 0.0752680025106597 -0.007746559519442296 0.13080260487478718 -0.007254029095600526 0.1334228230233862 0.0637469302078665 -0.19495078816253336
20700466977.985325 0.09343294351061648 0.0752707042819396 -0.005770770279695868 0.13086198543327734 -0.005238945527850495 0.133473626213357 0.06021919146723025 -0.19685606103631828
20710473649.0994 0.09347574038191142 0.07526929171267147 -0.0037976011569232607 0.13089568105727623 -0.0032266605392936537 0.13349825038711677 0.056627828101278796 -0.19859584784167383
20720480320.213474 0.09351855767825515 0.07526764458916287 -0.0018247652832186255 0.1308996683998646 -0.0012148619733130075 0.1334925814939016 0.05298930118400659 -0.2002662401470272
20730486991.327553 -0.05051115278044209 0.030820070314862523 -0.012796425168419242 0.13611128114562418 -0.010727596531067852 0.13655165596424984 0.029749843990311255 -0.1694832850256777
20740493662.441628 -0.05046553922290421 0.0308260241287555 -0.010730844057071077 0.13625566344522302 -0.00865609793986934 0.1366645531909072 0.02701849237831809 -0.17045308294684106
20750500333.555702 -0.05041985978693624 0.030831726021183895 -0.008663825772136972 0.13636867965172142 -0.006583641632055597 0.13674600607402024 0.02426028294008058 -0.17138049737015115
20760507004.66978 -0.05037331670106139 0.03083309134107113 -0.006597412157078379 0.13645392667655568 -0.004512217830307884 0.13679964934446182 0.021462001399003082 -0.17216264499871514
20770513675.783855 -0.05032675526732379 0.03083419585382334 -0.004530411705085626 0.13650784302160085 -0.0024406876269821615 0.13682189681595358 0.018641574998745785 -0.17290058959707272
20780520346.89793 0.040710632824064466 0.09893416905060952 -0.014532213124749848 0.13229380808045518 -0.012679549371961786 0.13182897786442546 0.02675518152743541 -0.21523158917787993
20790527018.01201 0.040753742014699064 0.09894278075335833 -0.012538962086886662 0.13246431206434223 -0.010693953805909226 0.13197180989255797 0.022626988214544685 -0.2161710631671709
20800533689.126083 0.04079690424164984 0.09895116144685638 -0.010543908159345874 0.13260484020929666 -0.008706967699502265 0.13208479145327623 0.018471044538843233 -0.2170261362893591
20810540360.24016 0.0408412125840213 0.09895557291329157 -0.008549102192957236 0.13272018818659265 -0.006720567136564332 0.132172721875123 0.014279583741984143 -0.2176910161244681
20820547031.354237 0.04088553124744937 0.09895974246514465 -0.006553239888004091 0.13280559234877146 -0.004733518426906397 0.13223084373898228 0.01006764093638093 -0.21826975484185837
20830553702.46831 -0.021915781891066057 0.010275739945363677 -0.018820621449541147 0.13407510877334264 -0.016294912337869876 0.13548994345168297 -0.013623841958467012 -0.17860492290493965
20840560373.58239 -0.021870951813543565 0.010288969602278207 -0.016788572611235588 0.13432309495125527 -0.014242162665737922 0.13569936089430645 -0.016645247262641976 -0.17845640495132326
20850567044.696465 -0.021826057252995898 0.010301944426094405 -0.014753319296239993 0.1345402705433206 -0.012186797617289007 0.13587766494897008 -0.01966571157917325 -0.17825748133640562
20860573715.81054 -0.021779531720669133 0.010310927085913274 -0.012715679357778772 0.13473054212999738 -0.010129563543376144 0.13602880879020843 -0.02268975839782117 -0.17789448972735378
20870580386.924618 -0.021732986528445637 0.010319637215515357 -0.010675654114200865 0.13488993926836493 -0.008070540890266445 0.13614879120910703 -0.025707316604116383 -0.177480927192771
20880587058.038692 0.012981076590760737 0.12392579513503305 -0.019699977200397897 0.12938702809005803 -0.016878366952910066 0.13086969394113496 -0.0107566767933183 -0.21123575870417563
20890593729.152767 0.013022729720557834 0.12394076590527914 -0.017749061900474875 0.1296450772270179 -0.014905993306671889 0.13108488831147722 -0.014804034837443709 -0.21123660430422683
20900600400.266846 0.01306443283935263 0.12395549360399957 -0.015794875555345315 0.12987376364979006 -0.012930998485421981 0.1312704111091561 -0.018857164951833393 -0.21115535372059532
20910607071.38092 0.013107906716335795 0.12396664850383092 -0.013838562792976232 0.1300776246520743 -0.010954431779695645 0.13143086206720014 -0.022909341353864448 -0.21087486345635711
20920613742.494995 0.013151391127739477 0.12397754241116307 -0.011879716454012165 0.1302520785675118 -0.008975988255105392 0.13156161370248048 -0.0269596901786023 -0.21051201572506478
20930620413.609074 -0.006830218825659835 -0.016688421403667712 -0.023966861181990998 0.13234408486351415 -0.021473237249153176 0.13293593420941635 -0.0443613541391829 -0.16946548944105583
20940627084.72315 -0.00678780354165663 -0.016668231335236892 -0.02195897929917664 0.13267855800538378 -0.01945693057208456 0.133232544983001 -0.04716891240601953 -0.16856329919051855
20950633755.837223 -0.006745317763038242 -0.01664831428495545 -0.019946461331038636 0.13298254457118625 -0.017436563145067852 0.13349854968042627 -0.04995881300166113 -0.16761608925524465
20960640426.9513 -0.006700584784648755 -0.01663188518276498 -0.01792928609460884 0.13325972522097648 -0.015412043728475077 0.1337376323357978 -0.05271436442945926 -0.1665012245331563
20970647098.065376 -0.0066558206883605454 -0.016615753338399313 -0.015908292694334934 0.1335062829143418 -0.013384284917790187 0.13394598795795717 -0.05544657655504804 -0.16534262725417864
20980653769.17945 0.0259833833157959 0.14562061409788093 -0.02302121530310641 0.1272363927478112 -0.02012868847650555 0.12680400283447216 -0.03956079672437858 -0.21626721822287479
20990660440.29353 0.026021934152115123 0.14564079925150514 -0.02110537393678574 0.12754972608612425 -0.01822007105798152 0.12707402465989162 -0.04382819960705508 -0.21554826333484114
21000667111.407604 0.026060537692081248 0.14566072571081431 -0.019185358860429717 0.12783429903969815 -0.016307926261728726 0.12731540589717164 -0.04808512166931299 -0.2147389165472858
21010673782.521683 0.02610131399503751 0.1456776030031488 -0.01726180779169968 0.12809459744440013 -0.01439279109168992 0.1275326134130238 -0.052299791571416676 -0.21371902051700675
21020680453.635757 0.026142110399553612 0.14569420100358074 -0.015334798932234946 0.12832604871057807 -0.012474841114073872 0.12772110955114008 -0.056495626392866836 -0.21261005718969647
21030687124.749832 -0.0007333012412994331 -0.03282774348955978 -0.030291718871374117 0.12922519928384874 -0.02854411749792982 0.12802836915358853 -0.09244381939789692 -0.17564774666488941
21040693795.86391 -0.0006962863822841904 -0.03280032259721542 -0.028337824134118887 0.12966741118066774 -0.026608488964412168 0.12844434338965105 -0.09550154674110486 -0.1734250591857523
21050700466.977985 -0.000659168963665923 -0.03277318046606783 -0.02637744341311324 0.13008009731492653 -0.024666768616379987 0.12883107000141136 -0.0985067457871483 -0.1711477480313517
21060707138.09206 -0.000619315759360169 -0.03274879506196863 -0.02440969699446009 0.13046735525207112 -0.02271804301124529 0.12919258880103623 -0.10141645218590026 -0.16869614255111573
